
**** 03/14/12 11:07:38 ********* PSpice 9.2 (Mar 2000) ******** ID# 1 ********

 ** Profile: "Amp Diff-Time"  [ D:\PROJETPLURY\CARTE\Simulation\pp-amp diff-time.sim ] 


 ****     CIRCUIT DESCRIPTION


******************************************************************************




** Creating circuit file "pp-amp diff-time.sim.cir" 
** WARNING: THIS AUTOMATICALLY GENERATED FILE MAY BE OVERWRITTEN BY SUBSEQUENT SIMULATIONS

*Libraries: 
* Local Libraries :
.LIB ".\pp.lib" 
* From [PSPICE NETLIST] section of C:\Program Files\Orcad\PSpice\PSpice.ini file:
.lib "nom.lib" 

*Analysis directives: 
.TRAN  0 0.003 0 0.00003 
.STEP PARAM Gain LIST 10K, 20k 
.PROBE V(*) I(*) W(*) D(*) NOISE(*) 
.INC ".\pp-Amp Diff.net" 



**** INCLUDING "pp-Amp Diff.net" ****
* source PP
X_U1A         N01771 N00434 V50 0 N00607 LM324
R_R3         N00647 N00956  10K  
V_V4         N01771 N01796  
+SIN 0 1 1000 0 0 0
C_C3         0 V25  2.2uf  
R_R4         N00607 N00919  10K  
X_U2A         N01796 N00401 V50 0 N00647 LM324
V_V3         N01796 0 1.8
R_R5         N00956 N01033  10K  
X_U3A         N00919 N00956 V50 0 N01033 LM324
R_R1         N00434 N00607  10K  
R_R2         N00401 N00647  10K  
R_R6         V25 V50  470  
V_V1         V50 0 5Vdc
R_R7         N00434 N00401  {Gain}  
R_R8         0 V25  470  
C_C2         V25 V50  2.2uf  
R_R9         N00919 V25  10K  
C_C1         0 V50  100n  
.PARAM  H1=2.305 H2=2.325 Gain=1

**** RESUMING "pp-amp diff-time.sim.cir" ****
.END

**** 03/14/12 11:07:38 ********* PSpice 9.2 (Mar 2000) ******** ID# 1 ********

 ** Profile: "Amp Diff-Time"  [ D:\PROJETPLURY\CARTE\Simulation\pp-amp diff-time.sim ] 


 ****     Diode MODEL PARAMETERS


******************************************************************************




               X_U1A.dx        X_U1A.dy        X_U2A.dx        X_U2A.dy        
          IS  800.000000E-18  800.000000E-18  800.000000E-18  800.000000E-18 
          RS    1               1.000000E-03    1               1.000000E-03 
         CJO                   10.000000E-12                   10.000000E-12 


               X_U3A.dx        X_U3A.dy        
          IS  800.000000E-18  800.000000E-18 
          RS    1               1.000000E-03 
         CJO                   10.000000E-12 


**** 03/14/12 11:07:38 ********* PSpice 9.2 (Mar 2000) ******** ID# 1 ********

 ** Profile: "Amp Diff-Time"  [ D:\PROJETPLURY\CARTE\Simulation\pp-amp diff-time.sim ] 


 ****     BJT MODEL PARAMETERS


******************************************************************************




               X_U1A.qx        X_U2A.qx        X_U3A.qx        
               PNP             PNP             PNP             
          IS  800.000000E-18  800.000000E-18  800.000000E-18 
          BF  166.7           166.7           166.7          
          NF    1               1               1            
          BR    1               1               1            
          NR    1               1               1            
          CN    2.2             2.2             2.2          
           D     .52             .52             .52         


**** 03/14/12 11:07:38 ********* PSpice 9.2 (Mar 2000) ******** ID# 1 ********

 ** Profile: "Amp Diff-Time"  [ D:\PROJETPLURY\CARTE\Simulation\pp-amp diff-time.sim ] 


 ****     Current Controlled Switch MODEL PARAMETERS


******************************************************************************




               X_U1A.sw2       X_U1A.sw1       X_U1A.sw3       X_U1A.sw4       
         RON    1               1               1               1            
        ROFF   10.000000E+06   10.000000E+06   10.000000E+06   10.000000E+06 
         ION    0              -1.000000E-06   -1.000000E-06    0            
        IOFF   -1.000000E-06    0               0              -1.000000E-06 


               X_U2A.sw2       X_U2A.sw1       X_U2A.sw3       X_U2A.sw4       
         RON    1               1               1               1            
        ROFF   10.000000E+06   10.000000E+06   10.000000E+06   10.000000E+06 
         ION    0              -1.000000E-06   -1.000000E-06    0            
        IOFF   -1.000000E-06    0               0              -1.000000E-06 


               X_U3A.sw2       X_U3A.sw1       X_U3A.sw3       X_U3A.sw4       
         RON    1               1               1               1            
        ROFF   10.000000E+06   10.000000E+06   10.000000E+06   10.000000E+06 
         ION    0              -1.000000E-06   -1.000000E-06    0            
        IOFF   -1.000000E-06    0               0              -1.000000E-06 


**** 03/14/12 11:07:38 ********* PSpice 9.2 (Mar 2000) ******** ID# 1 ********

 ** Profile: "Amp Diff-Time"  [ D:\PROJETPLURY\CARTE\Simulation\pp-amp diff-time.sim ] 


 ****     INITIAL TRANSIENT SOLUTION       TEMPERATURE =   27.000 DEG C

 ****     CURRENT STEP                     PARAM GAIN =   10.0000E+03


******************************************************************************



 NODE   VOLTAGE     NODE   VOLTAGE     NODE   VOLTAGE     NODE   VOLTAGE


(  V25)    2.4919  (  V50)    5.0000  (N00401)    1.8000 (N00434)    1.8000     

(N00607)    1.7996 (N00647)    1.7996 (N00919)    2.1460 (N00956)    2.1459     

(N01033)    2.4917 (N01771)    1.8000 (N01796)    1.8000 (X_U1A.6) 132.5E-06    

(X_U1A.7)    1.7979                   (X_U1A.8)    1.7979                       

(X_U1A.9)    0.0000                   (X_U1A.a) 500.0E-09                       

(X_U1A.b) 52.02E-06                   (X_U2A.6) 132.5E-06                       

(X_U2A.7)    1.7979                   (X_U2A.8)    1.7979                       

(X_U2A.9)    0.0000                   (X_U2A.a) 500.0E-09                       

(X_U2A.b) 52.01E-06                   (X_U3A.6) 1.067E-06                       

(X_U3A.7)    2.4934                   (X_U3A.8)    2.4934                       

(X_U3A.9)    0.0000                   (X_U3A.a)    5.0000                       

(X_U3A.b)-51.88E-06                   (X_U1A.10)    2.4078                      

(X_U1A.11)     .0398                  (X_U1A.12)     .0398                      

(X_U1A.13)    2.3939                  (X_U1A.14)    2.3939                      

(X_U1A.53)    3.5000                  (X_U1A.54)     .8220                      

(X_U1A.90)    -.0347                  (X_U1A.91)   40.0000                      

(X_U1A.92)  -40.0000                  (X_U1A.99)    2.5000                      

(X_U2A.10)    2.4078                  (X_U2A.11)     .0398                      

(X_U2A.12)     .0398                  (X_U2A.13)    2.3939                      

(X_U2A.14)    2.3939                  (X_U2A.53)    3.5000                      

(X_U2A.54)     .8220                  (X_U2A.90)    -.0347                      

(X_U2A.91)   40.0000                  (X_U2A.92)  -40.0000                      

(X_U2A.99)    2.5000                  (X_U3A.10)    2.7537                      

(X_U3A.11)     .0398                  (X_U3A.12)     .0397                      

(X_U3A.13)    2.7397                  (X_U3A.14)    2.7398                      

(X_U3A.53)    3.5000                  (X_U3A.54)     .8220                      

(X_U3A.90)     .0346                  (X_U3A.91)   40.0000                      

(X_U3A.92)  -40.0000                  (X_U3A.99)    2.5000                  




    VOLTAGE SOURCE CURRENTS
    NAME         CURRENT

    V_V4         4.503E-08
    V_V3         9.006E-08
    V_V1        -7.035E-03
    X_U1A.vb     1.325E-09
    X_U1A.vc     1.701E-12
    X_U1A.ve     1.023E-12
    X_U1A.vlim  -3.468E-05
    X_U1A.vlp   -4.004E-11
    X_U1A.vln   -3.997E-11
    X_U2A.vb     1.325E-09
    X_U2A.vc     1.701E-12
    X_U2A.ve     1.023E-12
    X_U2A.vlim  -3.467E-05
    X_U2A.vlp   -4.004E-11
    X_U2A.vln   -3.997E-11
    X_U3A.vb     1.067E-11
    X_U3A.vc     1.009E-12
    X_U3A.ve     1.705E-12
    X_U3A.vlim   3.458E-05
    X_U3A.vlp   -3.997E-11
    X_U3A.vln   -4.004E-11

    TOTAL POWER DISSIPATION   3.52E-02  WATTS


**** 03/14/12 11:07:38 ********* PSpice 9.2 (Mar 2000) ******** ID# 1 ********

 ** Profile: "Amp Diff-Time"  [ D:\PROJETPLURY\CARTE\Simulation\pp-amp diff-time.sim ] 


 ****     INITIAL TRANSIENT SOLUTION       TEMPERATURE =   27.000 DEG C

 ****     CURRENT STEP                     PARAM GAIN =   20.0000E+03


******************************************************************************



 NODE   VOLTAGE     NODE   VOLTAGE     NODE   VOLTAGE     NODE   VOLTAGE


(  V25)    2.4919  (  V50)    5.0000  (N00401)    1.8000 (N00434)    1.8000     

(N00607)    1.7996 (N00647)    1.7996 (N00919)    2.1460 (N00956)    2.1459     

(N01033)    2.4917 (N01771)    1.8000 (N01796)    1.8000 (X_U1A.6) 132.5E-06    

(X_U1A.7)    1.7979                   (X_U1A.8)    1.7979                       

(X_U1A.9)    0.0000                   (X_U1A.a) 500.0E-09                       

(X_U1A.b) 52.02E-06                   (X_U2A.6) 132.5E-06                       

(X_U2A.7)    1.7979                   (X_U2A.8)    1.7979                       

(X_U2A.9)    0.0000                   (X_U2A.a) 500.0E-09                       

(X_U2A.b) 52.01E-06                   (X_U3A.6) 1.067E-06                       

(X_U3A.7)    2.4934                   (X_U3A.8)    2.4934                       

(X_U3A.9)    0.0000                   (X_U3A.a)    5.0000                       

(X_U3A.b)-51.88E-06                   (X_U1A.10)    2.4078                      

(X_U1A.11)     .0398                  (X_U1A.12)     .0398                      

(X_U1A.13)    2.3939                  (X_U1A.14)    2.3939                      

(X_U1A.53)    3.5000                  (X_U1A.54)     .8220                      

(X_U1A.90)    -.0347                  (X_U1A.91)   40.0000                      

(X_U1A.92)  -40.0000                  (X_U1A.99)    2.5000                      

(X_U2A.10)    2.4078                  (X_U2A.11)     .0398                      

(X_U2A.12)     .0398                  (X_U2A.13)    2.3939                      

(X_U2A.14)    2.3939                  (X_U2A.53)    3.5000                      

(X_U2A.54)     .8220                  (X_U2A.90)    -.0347                      

(X_U2A.91)   40.0000                  (X_U2A.92)  -40.0000                      

(X_U2A.99)    2.5000                  (X_U3A.10)    2.7537                      

(X_U3A.11)     .0398                  (X_U3A.12)     .0397                      

(X_U3A.13)    2.7397                  (X_U3A.14)    2.7398                      

(X_U3A.53)    3.5000                  (X_U3A.54)     .8220                      

(X_U3A.90)     .0346                  (X_U3A.91)   40.0000                      

(X_U3A.92)  -40.0000                  (X_U3A.99)    2.5000                  




    VOLTAGE SOURCE CURRENTS
    NAME         CURRENT

    V_V4         4.503E-08
    V_V3         9.006E-08
    V_V1        -7.035E-03
    X_U1A.vb     1.325E-09
    X_U1A.vc     1.701E-12
    X_U1A.ve     1.023E-12
    X_U1A.vlim  -3.468E-05
    X_U1A.vlp   -4.004E-11
    X_U1A.vln   -3.997E-11
    X_U2A.vb     1.325E-09
    X_U2A.vc     1.701E-12
    X_U2A.ve     1.023E-12
    X_U2A.vlim  -3.467E-05
    X_U2A.vlp   -4.004E-11
    X_U2A.vln   -3.997E-11
    X_U3A.vb     1.067E-11
    X_U3A.vc     1.009E-12
    X_U3A.ve     1.705E-12
    X_U3A.vlim   3.458E-05
    X_U3A.vlp   -3.997E-11
    X_U3A.vln   -4.004E-11

    TOTAL POWER DISSIPATION   3.52E-02  WATTS



          JOB CONCLUDED

          TOTAL JOB TIME             .48
